;$FILEVERSION=1.1
;$STARTTIME=44608.2814634028
;
;   Start time: 16-02-2022 06:45:18.438.0
;   Generated by PCAN-View v4.3.4.615
;
;   Message Number
;   |         Time Offset (ms)
;   |         |        Type
;   |         |        |        ID (hex)
;   |         |        |        |     Data Length
;   |         |        |        |     |   Data Bytes (hex) ...
;   |         |        |        |     |   |
;---+--   ----+----  --+--  ----+---  +  -+ -- -- -- -- -- -- --
     1)        11.1  Rx         0020  8  80 00 A0 03 48 01 06 00 
     2)        91.3  Rx         0020  8  80 00 A0 03 48 01 06 00 
     3)       171.0  Rx         0020  8  80 00 A0 03 48 01 06 00 
     4)       251.1  Rx         0020  8  80 00 A0 03 48 01 06 00 
     5)       331.3  Rx         0020  8  80 00 A0 03 48 01 05 00 
     6)       411.1  Rx         0020  8  80 00 A0 03 48 01 06 00 
     7)       486.3  Rx         0705  8  4A 59 00 00 F8 0C 00 00 
     8)       486.8  Rx         0706  8  04 20 00 00 00 00 4C 01 
     9)       487.3  Rx         0708  8  00 00 00 01 00 00 00 00 
    10)       487.8  Rx         0710  8  00 00 00 07 13 13 D9 00 
    11)       488.3  Rx         0715  8  00 00 00 00 51 51 00 00 
    12)       488.7  Rx         0716  8  00 EE 73 4F 00 00 02 00 
    13)       489.2  Rx         0717  8  00 00 0A 00 00 00 00 00 
    14)       489.8  Rx         0724  8  00 00 00 00 01 00 00 00 
    15)       490.2  Rx         0726  8  02 87 01 00 01 0E 25 00 
    16)       491.0  Rx         0020  8  80 00 A0 03 48 01 06 00 
    17)       571.3  Rx         0020  8  80 00 A0 03 48 01 06 00 
    18)       651.0  Rx         0020  8  80 00 A0 03 48 01 06 00 
    19)       731.0  Rx         0020  8  80 00 A0 03 48 01 06 00 
    20)       811.3  Rx         0110  8  B4 9E 00 00 00 00 00 00 
    21)       811.7  Rx         0111  8  09 22 10 27 03 00 2C 03 
    22)       812.3  Rx         0020  8  80 00 A0 03 48 01 06 00 
    23)       812.7  Rx         0112  8  16 17 15 15 14 14 E2 05 
    24)       813.4  Rx         0113  8  50 00 54 9E 57 9E 59 9E 
    25)       813.8  Rx         0114  8  5A 9E 5A 9E 56 9E 56 9E 
    26)       814.3  Rx         0115  8  59 9E 55 9E 00 00 00 00 
    27)       814.9  Rx         0116  8  B1 9E B2 9E B0 9E B3 9E 
    28)       815.4  Rx         0117  8  B2 9E B2 9E B3 9E B2 9E 
    29)       816.0  Rx         0118  8  00 00 B4 9E 00 00 00 00 
    30)       816.6  Rx     1806E5F4  8  03 48 01 06 00 00 00 00 
    31)       817.1  Rx         012A  8  C6 03 C4 09 00 00 00 00 
    32)       817.5  Rx         011C  8  C0 06 C0 06 02 05 32 42 
    33)       891.0  Rx         0020  8  80 00 A0 03 48 01 06 00 
    34)       911.1  Rx         0258  8  00 00 00 00 00 00 00 00 
    35)       911.7  Rx         0259  8  00 00 00 00 00 00 00 00 
    36)       971.0  Rx         0020  8  80 00 A0 03 48 01 06 00 
    37)       990.0  Rx         0705  8  4A 59 00 00 F8 0C 00 00 
    38)       990.5  Rx         0706  8  04 20 00 00 00 00 4C 01 
    39)       991.0  Rx         0708  8  00 00 00 01 00 00 00 00 
    40)       991.5  Rx         0710  8  00 00 00 07 13 13 D9 00 
    41)       992.0  Rx         0715  8  00 00 00 00 51 51 00 00 
    42)       992.5  Rx         0716  8  00 F3 73 4F 00 00 03 00 
    43)       993.0  Rx         0717  8  00 00 0A 00 00 00 00 00 
    44)       993.5  Rx         0724  8  00 00 00 00 01 00 00 00 
    45)       993.9  Rx         0726  8  02 87 01 00 01 0E 25 00 
    46)      1051.2  Rx         0020  8  80 00 A0 03 48 01 06 00 
    47)      1131.0  Rx         0020  8  80 00 A0 03 48 01 06 00 
    48)      1211.1  Rx         0020  8  80 00 A0 03 48 01 06 00 
    49)      1291.2  Rx         0020  8  80 00 A0 03 48 01 06 00 
    50)      1371.0  Rx         0020  8  80 00 A0 03 48 01 06 00 
    51)      1451.1  Rx         0020  8  80 00 A0 03 48 01 06 00 
    52)      1493.6  Rx         0705  8  4A 59 00 00 F8 0C 00 00 
    53)      1494.1  Rx         0706  8  04 20 00 00 00 00 4C 01 
    54)      1494.6  Rx         0708  8  00 00 00 01 00 00 00 00 
    55)      1495.1  Rx         0710  8  00 00 00 07 13 13 D9 00 
    56)      1495.6  Rx         0715  8  00 00 00 00 51 51 00 00 
    57)      1496.0  Rx         0716  8  00 F8 73 4F 00 00 02 00 
    58)      1496.5  Rx         0717  8  00 00 0A 00 00 00 00 00 
    59)      1497.0  Rx         0724  8  00 00 00 00 01 00 00 00 
    60)      1497.5  Rx         0726  8  02 87 01 00 01 0E 25 00 
    61)      1531.3  Rx         0020  8  80 00 A0 03 48 01 06 00 
    62)      1611.1  Rx         0020  8  80 00 A0 03 48 01 05 00 
    63)      1615.3  Rx         0725  8  00 00 00 64 64 00 0F 02 
    64)      1691.0  Rx         0020  8  80 00 A0 03 48 01 06 00 
    65)      1771.2  Rx         0020  8  80 00 A0 03 48 01 06 00 
    66)      1811.0  Rx         0110  8  B4 9E 00 00 AC 15 FF FF 
    67)      1811.5  Rx         0111  8  09 22 10 27 03 00 2C 03 
    68)      1812.1  Rx         0112  8  16 17 15 15 14 14 E2 05 
    69)      1812.6  Rx         0113  8  50 00 54 9E 59 9E 5A 9E 
    70)      1813.1  Rx         0114  8  5B 9E 5A 9E 56 9E 56 9E 
    71)      1813.5  Rx         0115  8  59 9E 55 9E 00 00 00 00 
    72)      1814.0  Rx         0116  8  B2 9E B1 9E B1 9E B1 9E 
    73)      1814.6  Rx         0117  8  B2 9E B3 9E B3 9E B3 9E 
    74)      1815.2  Rx         0118  8  00 00 B4 9E 00 00 01 00 
    75)      1815.8  Rx     1806E5F4  8  03 48 01 06 00 00 00 00 
    76)      1816.3  Rx         012A  8  C6 03 C4 09 00 00 00 00 
    77)      1816.7  Rx         011C  8  C0 06 C0 06 02 05 32 42 
    78)      1851.2  Rx         0020  8  80 00 A0 03 48 01 06 00 
    79)      1931.0  Rx         0020  8  80 00 A0 03 48 01 06 00 
    80)      1931.5  Rx         0258  8  00 00 00 00 00 00 00 00 
    81)      1951.2  Rx         0259  8  00 00 00 00 00 00 00 00 
    82)      1997.3  Rx         0705  8  4A 59 00 00 F8 0C 00 00 
    83)      1997.8  Rx         0706  8  04 20 00 00 00 00 4C 01 
    84)      1998.3  Rx         0708  8  00 00 00 01 00 00 00 00 
    85)      1998.7  Rx         0710  8  00 00 00 07 13 13 D9 00 
    86)      1999.3  Rx         0715  8  00 00 00 00 51 51 00 00 
    87)      1999.7  Rx         0716  8  00 FD 73 4F 00 00 02 00 
    88)      2000.2  Rx         0717  8  00 00 0A 00 00 00 00 00 
    89)      2000.7  Rx         0724  8  00 00 00 00 01 00 00 00 
    90)      2001.2  Rx         0726  8  02 87 01 00 01 0E 25 00 
    91)      2011.3  Rx         0020  8  80 00 A0 03 48 01 06 00 
    92)      2091.0  Rx         0020  8  80 00 A0 03 48 01 06 00 
    93)      2171.0  Rx         0020  8  80 00 A0 03 48 01 06 00 
    94)      2251.2  Rx         0020  8  80 00 A0 03 48 01 06 00 
    95)      2331.0  Rx         0020  8  80 00 A0 03 48 01 06 00 
    96)      2411.1  Rx         0020  8  80 00 A0 03 48 01 06 00 
    97)      2491.2  Rx         0020  8  80 00 A0 03 48 01 06 00 
    98)      2500.9  Rx         0705  8  4A 59 00 00 F8 0C 00 00 
    99)      2501.4  Rx         0706  8  04 20 00 00 00 00 4C 01 
   100)      2501.9  Rx         0708  8  00 00 00 01 00 00 00 00 
   101)      2502.4  Rx         0710  8  00 00 00 07 13 13 D9 00 
   102)      2502.8  Rx         0715  8  00 00 00 00 51 51 00 00 
   103)      2503.3  Rx         0716  8  00 01 74 4F 00 00 02 00 
   104)      2503.8  Rx         0717  8  FF FF 0A 00 00 00 03 00 
   105)      2504.3  Rx         0724  8  00 00 00 00 01 00 00 00 
   106)      2504.8  Rx         0726  8  02 87 01 00 01 0E 25 00 
   107)      2571.0  Rx         0020  8  80 00 A0 03 48 01 06 00 
   108)      2651.1  Rx         0020  8  80 00 A0 03 48 01 06 00 
   109)      2731.3  Rx         0020  8  80 00 A0 03 48 01 06 00 
   110)      2811.0  Rx         0110  8  B4 9E 00 00 AC 15 FF FF 
   111)      2811.5  Rx         0111  8  09 22 10 27 03 00 2C 03 
   112)      2811.9  Rx         0020  8  80 00 A0 03 48 01 06 00 
   113)      2812.4  Rx         0112  8  16 17 15 15 14 14 E2 05 
   114)      2813.1  Rx         0113  8  50 00 54 9E 58 9E 59 9E 
   115)      2813.6  Rx         0114  8  5A 9E 5B 9E 54 9E 56 9E 
   116)      2814.0  Rx         0115  8  59 9E 54 9E 00 00 00 00 
   117)      2814.7  Rx         0116  8  B1 9E B1 9E AF 9E B1 9E 
   118)      2815.1  Rx         0117  8  B0 9E B1 9E B2 9E B1 9E 
   119)      2815.7  Rx         0118  8  00 00 B3 9E 00 00 00 00 
   120)      2816.3  Rx     1806E5F4  8  03 48 01 06 00 00 00 00 
   121)      2816.8  Rx         012A  8  C6 03 C4 09 00 00 00 00 
   122)      2817.2  Rx         011C  8  C0 06 C0 06 02 05 32 42 
   123)      2891.0  Rx         0020  8  80 00 A0 03 48 01 05 00 
   124)      2971.2  Rx         0020  8  80 00 A0 03 48 01 06 00 
   125)      2971.7  Rx         0258  8  00 00 00 00 00 00 00 00 
   126)      2972.2  Rx         0259  8  00 00 00 00 00 00 00 00 
   127)      3004.6  Rx         0705  8  4A 59 00 00 F8 0C 00 00 
   128)      3005.1  Rx         0706  8  04 20 00 00 00 00 4C 01 
   129)      3005.6  Rx         0708  8  00 00 00 01 00 00 00 00 
   130)      3006.1  Rx         0710  8  00 00 00 07 13 13 D9 00 
   131)      3006.5  Rx         0715  8  00 00 00 00 51 51 00 00 
   132)      3007.0  Rx         0716  8  00 06 74 4F 00 00 03 00 
   133)      3007.5  Rx         0717  8  00 00 0A 00 00 00 03 00 
   134)      3008.0  Rx         0724  8  00 00 00 00 01 00 00 00 
   135)      3008.5  Rx         0726  8  02 87 01 00 01 0E 25 00 
   136)      3051.0  Rx         0020  8  80 00 A0 03 48 01 06 00 
   137)      3131.0  Rx         0020  8  80 00 A0 03 48 01 06 00 
   138)      3211.3  Rx         0020  8  80 00 A0 03 48 01 06 00 
   139)      3291.0  Rx         0020  8  80 00 A0 03 48 01 05 00 
   140)      3371.0  Rx         0020  8  80 00 A0 03 48 01 06 00 
   141)      3451.2  Rx         0020  8  80 00 A0 03 48 01 06 00 
   142)      3508.2  Rx         0705  8  4A 59 00 00 F8 0C 00 00 
   143)      3508.7  Rx         0706  8  04 20 00 00 00 00 4C 01 
   144)      3509.2  Rx         0708  8  00 00 00 01 00 00 00 00 
   145)      3509.7  Rx         0710  8  00 00 00 07 13 13 D9 00 
   146)      3510.1  Rx         0715  8  00 00 00 00 51 51 00 00 
   147)      3510.6  Rx         0716  8  00 0B 74 4F 00 00 03 00 
   148)      3511.1  Rx         0717  8  00 00 0A 00 00 00 F8 FF 
   149)      3511.6  Rx         0724  8  00 00 00 00 01 00 00 00 
   150)      3512.1  Rx         0726  8  02 87 01 00 01 0E 25 00 
   151)      3531.0  Rx         0020  8  80 00 A0 03 48 01 06 00 
   152)      3611.1  Rx         0020  8  80 00 A0 03 48 01 06 00 
   153)      3611.8  Rx         0725  8  00 00 00 64 64 00 0F 02 
   154)      3691.2  Rx         0020  8  80 00 A0 03 48 01 06 00 
   155)      3771.0  Rx         0020  8  80 00 A0 03 48 01 06 00 
   156)      3811.3  Rx         0110  8  B5 9E 00 00 AC 15 FF FF 
   157)      3811.7  Rx         0111  8  09 22 10 27 03 00 2C 03 
   158)      3812.3  Rx         0112  8  16 17 15 15 14 14 E2 05 
   159)      3812.8  Rx         0113  8  51 00 53 9E 58 9E 59 9E 
   160)      3813.3  Rx         0114  8  5A 9E 5B 9E 55 9E 55 9E 
   161)      3813.8  Rx         0115  8  5A 9E 55 9E 00 00 00 00 
   162)      3814.2  Rx         0116  8  B2 9E B1 9E B0 9E B2 9E 
   163)      3814.9  Rx         0117  8  B1 9E B2 9E B3 9E B3 9E 
   164)      3815.4  Rx         0118  8  00 00 B4 9E 00 00 00 00 
   165)      3816.0  Rx     1806E5F4  8  03 48 01 06 00 00 00 00 
   166)      3816.5  Rx         012A  8  C6 03 C4 09 00 00 00 00 
   167)      3817.0  Rx         011C  8  C0 06 C0 06 02 05 32 42 
   168)      3851.1  Rx         0020  8  80 00 A0 03 48 01 06 00 
   169)      3931.3  Rx         0020  8  80 00 A0 03 48 01 06 00 
   170)      3991.2  Rx         0258  8  00 00 00 00 00 00 00 00 
   171)      3991.7  Rx         0259  8  00 00 00 00 00 00 00 00 
   172)      4011.0  Rx         0020  8  80 00 A0 03 48 01 06 00 
   173)      4011.9  Rx         0705  8  4A 59 00 00 F8 0C 00 00 
   174)      4012.3  Rx         0706  8  04 20 00 00 00 00 4C 01 
   175)      4012.9  Rx         0708  8  00 00 00 01 00 00 00 00 
   176)      4013.4  Rx         0710  8  00 00 00 07 13 13 D9 00 
   177)      4013.8  Rx         0715  8  00 00 00 00 51 51 00 00 
   178)      4014.3  Rx         0716  8  00 10 74 4F 00 00 03 00 
   179)      4014.8  Rx         0717  8  FF FF 0A 00 00 00 F8 FF 
   180)      4015.3  Rx         0724  8  00 00 00 00 01 00 00 00 
   181)      4015.8  Rx         0726  8  02 87 01 00 01 0E 25 00 
   182)      4091.0  Rx         0020  8  80 00 A0 03 48 01 06 00 
   183)      4171.2  Rx         0020  8  80 00 A0 03 48 01 06 00 
   184)      4251.0  Rx         0020  8  80 00 A0 03 48 01 06 00 
   185)      4331.0  Rx         0020  8  80 00 A0 03 48 01 06 00 
   186)      4411.3  Rx         0020  8  80 00 A0 03 48 01 06 00 
   187)      4490.9  Rx         0020  8  80 00 A0 03 48 01 06 00 
   188)      4515.5  Rx         0705  8  4A 59 00 00 F8 0C 00 00 
   189)      4516.0  Rx         0706  8  04 20 00 00 00 00 4C 01 
   190)      4516.5  Rx         0708  8  00 00 00 01 00 00 00 00 
   191)      4517.0  Rx         0710  8  00 00 00 07 13 13 D9 00 
   192)      4517.5  Rx         0715  8  00 00 00 00 51 51 00 00 
   193)      4517.9  Rx         0716  8  00 15 74 4F 00 00 03 00 
   194)      4518.4  Rx         0717  8  00 00 0A 00 00 00 03 00 
   195)      4518.9  Rx         0724  8  00 00 00 00 01 00 00 00 
   196)      4519.4  Rx         0726  8  02 87 01 00 01 0E 25 00 
   197)      4571.0  Rx         0020  8  80 00 A0 03 48 01 06 00 
   198)      4651.2  Rx         0020  8  80 00 A0 03 48 01 06 00 
   199)      4731.0  Rx         0020  8  80 00 A0 03 48 01 06 00 
   200)      4811.0  Rx         0110  8  B4 9E 00 00 AC 15 FF FF 
   201)      4811.4  Rx         0111  8  09 22 10 27 03 00 2C 03 
   202)      4811.9  Rx         0020  8  80 00 A0 03 48 01 06 00 
   203)      4812.4  Rx         0112  8  16 17 15 15 14 14 E2 05 
   204)      4813.0  Rx         0113  8  50 00 53 9E 58 9E 5A 9E 
   205)      4813.5  Rx         0114  8  5B 9E 5C 9E 56 9E 56 9E 
   206)      4814.0  Rx         0115  8  59 9E 55 9E 00 00 00 00 
   207)      4814.6  Rx         0116  8  B1 9E B2 9E B0 9E B1 9E 
   208)      4815.1  Rx         0117  8  B1 9E B1 9E B3 9E B2 9E 
   209)      4815.7  Rx         0118  8  00 00 B4 9E 00 00 00 00 
   210)      4816.3  Rx     1806E5F4  8  03 48 01 06 00 00 00 00 
   211)      4816.8  Rx         012A  8  C6 03 C4 09 00 00 00 00 
   212)      4817.2  Rx         011C  8  C0 06 C0 06 02 05 32 42 
   213)      4891.2  Rx         0020  8  80 00 A0 03 48 01 06 00 
   214)      4970.9  Rx         0020  8  80 00 A0 03 48 01 06 00 
   215)      5011.3  Rx         0258  8  00 00 00 00 00 00 00 00 
   216)      5011.9  Rx         0259  8  00 00 00 00 00 00 00 00 
   217)      5019.2  Rx         0705  8  4A 59 00 00 F8 0C 00 00 
   218)      5019.7  Rx         0706  8  04 20 00 00 00 00 4C 01 
   219)      5020.2  Rx         0708  8  00 00 00 01 00 00 00 00 
   220)      5020.7  Rx         0710  8  00 00 00 07 13 13 D9 00 
   221)      5021.2  Rx         0715  8  00 00 00 00 51 51 00 00 
   222)      5021.6  Rx         0716  8  00 19 74 4F 00 00 03 00 
   223)      5022.1  Rx         0717  8  00 00 0A 00 00 00 01 00 
   224)      5022.7  Rx         0724  8  00 00 00 00 01 00 00 00 
   225)      5023.1  Rx         0726  8  02 87 01 00 01 0E 25 00 
   226)      5051.1  Rx         0020  8  80 00 A0 03 48 01 06 00 
   227)      5131.2  Rx         0020  8  80 00 A0 03 48 01 06 00 
   228)      5211.0  Rx         0020  8  80 00 A0 03 48 01 06 00 
   229)      5290.9  Rx         0020  8  80 00 A0 03 48 01 05 00 
   230)      5371.2  Rx         0020  8  80 00 A0 03 48 01 06 00 
   231)      5450.9  Rx         0020  8  80 00 A0 03 48 01 06 00 
   232)      5522.8  Rx         0705  8  4A 59 00 00 F8 0C 00 00 
   233)      5523.3  Rx         0706  8  04 20 00 00 00 00 4C 01 
   234)      5523.8  Rx         0708  8  00 00 00 01 00 00 00 00 
   235)      5524.2  Rx         0710  8  00 00 00 07 13 13 D9 00 
   236)      5524.8  Rx         0715  8  00 00 00 00 51 51 00 00 
   237)      5525.2  Rx         0716  8  00 1E 74 4F 00 00 02 00 
   238)      5525.7  Rx         0717  8  FF FF 0A 00 00 00 F8 FF 
   239)      5526.2  Rx         0724  8  00 00 00 00 01 00 00 00 
   240)      5526.7  Rx         0726  8  02 87 01 00 01 0E 25 00 
   241)      5530.9  Rx         0020  8  80 00 A0 03 48 01 06 00 
   242)      5608.0  Rx         0725  8  00 00 00 64 64 00 0F 02 
   243)      5611.3  Rx         0020  8  80 00 A0 03 48 01 06 00 
   244)      5690.9  Rx         0020  8  80 00 A0 03 48 01 06 00 
   245)      5770.9  Rx         0020  8  80 00 A0 03 48 01 06 00 
   246)      5810.9  Rx         0110  8  B4 9E 00 00 AC 15 FF FF 
   247)      5811.4  Rx         0111  8  09 22 10 27 03 00 2C 03 
   248)      5812.0  Rx         0112  8  16 17 15 15 14 14 E2 05 
   249)      5812.5  Rx         0113  8  50 00 53 9E 58 9E 5A 9E 
   250)      5812.9  Rx         0114  8  5A 9E 5B 9E 56 9E 56 9E 
   251)      5813.5  Rx         0115  8  59 9E 55 9E 00 00 00 00 
   252)      5813.9  Rx         0116  8  B1 9E B1 9E AF 9E B2 9E 
   253)      5814.5  Rx         0117  8  B2 9E B2 9E B4 9E B2 9E 
   254)      5815.1  Rx         0118  8  00 00 B4 9E 00 00 00 00 
   255)      5815.7  Rx     1806E5F4  8  03 48 01 06 00 00 00 00 
   256)      5816.2  Rx         012A  8  C6 03 C4 09 00 00 00 00 
   257)      5816.7  Rx         011C  8  C0 06 C0 06 02 05 32 42 
   258)      5851.3  Rx         0020  8  80 00 A0 03 48 01 06 00 
   259)      5930.9  Rx         0020  8  80 00 A0 03 48 01 06 00 
   260)      6011.0  Rx         0020  8  80 00 A0 03 48 01 06 00 
   261)      6026.4  Rx         0705  8  4A 59 00 00 F8 0C 00 00 
   262)      6026.9  Rx         0706  8  04 20 00 00 00 00 4C 01 
   263)      6027.4  Rx         0708  8  00 00 00 01 00 00 00 00 
   264)      6027.9  Rx         0710  8  00 00 00 07 13 13 D9 00 
   265)      6028.4  Rx         0715  8  00 00 00 00 51 51 00 00 
   266)      6028.9  Rx         0716  8  00 23 74 4F 00 00 02 00 
   267)      6029.3  Rx         0717  8  00 00 0A 00 00 00 03 00 
   268)      6029.9  Rx         0724  8  00 00 00 00 01 00 00 00 
   269)      6030.3  Rx         0726  8  02 87 01 00 01 0E 25 00 
   270)      6031.1  Rx         0258  8  00 00 00 00 00 00 00 00 
   271)      6031.9  Rx         0259  8  00 00 00 00 00 00 00 00 
   272)      6091.1  Rx         0020  8  80 00 A0 03 48 01 06 00 
   273)      6170.9  Rx         0020  8  80 00 A0 03 48 01 06 00 
   274)      6251.0  Rx         0020  8  80 00 A0 03 48 01 06 00 
   275)      6331.2  Rx         0020  8  80 00 A0 03 48 01 06 00 
   276)      6411.0  Rx         0020  8  80 00 A0 03 48 01 06 00 
   277)      6490.9  Rx         0020  8  80 00 A0 03 48 01 06 00 
   278)      6530.0  Rx         0705  8  4A 59 00 00 F8 0C 00 00 
   279)      6530.5  Rx         0706  8  04 20 00 00 00 00 4C 01 
   280)      6531.0  Rx         0708  8  00 00 00 01 00 00 00 00 
   281)      6531.5  Rx         0710  8  00 00 00 07 13 13 D9 00 
   282)      6532.0  Rx         0715  8  00 00 00 00 51 51 00 00 
   283)      6532.5  Rx         0716  8  00 28 74 4F 00 00 03 00 
   284)      6532.9  Rx         0717  8  00 00 0A 00 00 00 01 00 
   285)      6533.4  Rx         0724  8  00 00 00 00 01 00 00 00 
   286)      6533.9  Rx         0726  8  02 87 01 00 01 0E 25 00 
   287)      6571.2  Rx         0020  8  80 00 A0 03 48 01 06 00 
   288)      6650.9  Rx         0020  8  80 00 A0 03 48 01 06 00 
   289)      6730.9  Rx         0020  8  80 00 A0 03 48 01 06 00 
   290)      6811.1  Rx         0110  8  B4 9E 00 00 AC 15 FF FF 
   291)      6811.6  Rx         0111  8  09 22 10 27 03 00 2C 03 
   292)      6812.1  Rx         0020  8  80 00 A0 03 48 01 06 00 
   293)      6812.6  Rx         0112  8  16 17 15 15 14 14 E2 05 
   294)      6813.2  Rx         0113  8  50 00 54 9E 59 9E 5A 9E 
   295)      6813.7  Rx         0114  8  5C 9E 5A 9E 55 9E 56 9E 
   296)      6814.2  Rx         0115  8  5A 9E 54 9E 00 00 00 00 
   297)      6814.8  Rx         0116  8  B1 9E B0 9E B1 9E B1 9E 
   298)      6815.3  Rx         0117  8  B0 9E B2 9E B4 9E B4 9E 
   299)      6815.9  Rx         0118  8  00 00 B4 9E 00 00 00 00 
   300)      6816.4  Rx     1806E5F4  8  03 48 01 06 00 00 00 00 
   301)      6817.0  Rx         012A  8  C6 03 C4 09 00 00 00 00 
   302)      6817.4  Rx         011C  8  C0 06 C0 06 02 05 32 42 
   303)      6890.9  Rx         0020  8  80 00 A0 03 48 01 06 00 
   304)      6970.9  Rx         0020  8  80 00 A0 03 48 01 06 00 
   305)      7034.2  Rx         0705  8  4A 59 00 00 F8 0C 00 00 
   306)      7034.8  Rx         0706  8  04 20 00 00 00 00 4C 01 
   307)      7035.3  Rx         0708  8  00 00 00 01 00 00 00 00 
   308)      7035.7  Rx         0710  8  00 00 00 07 13 13 D9 00 
   309)      7036.2  Rx         0715  8  00 00 00 00 51 51 00 00 
   310)      7036.7  Rx         0716  8  00 2D 74 4F 00 00 03 00 
   311)      7037.2  Rx         0717  8  00 00 0A 00 00 00 01 00 
   312)      7037.7  Rx         0724  8  00 00 00 00 01 00 00 00 
   313)      7038.2  Rx         0726  8  02 87 01 00 01 0E 25 00 
   314)      7051.1  Rx         0020  8  80 00 A0 03 48 01 06 00 
   315)      7051.6  Rx         0258  8  00 00 00 00 00 00 00 00 
   316)      7070.9  Rx         0259  8  00 00 00 00 00 00 00 00 
   317)      7130.9  Rx         0020  8  80 00 A0 03 48 01 06 00 
   318)      7210.9  Rx         0020  8  80 00 A0 03 48 01 06 00 
   319)      7291.1  Rx         0020  8  80 00 A0 03 48 01 06 00 
   320)      7370.9  Rx         0020  8  80 00 A0 03 48 01 06 00 
   321)      7451.0  Rx         0020  8  80 00 A0 03 48 01 06 00 
   322)      7531.1  Rx         0020  8  80 00 A0 03 48 01 06 00 
   323)      7537.6  Rx         0705  8  4A 59 00 00 F8 0C 00 00 
   324)      7538.1  Rx         0706  8  04 20 00 00 00 00 4C 01 
   325)      7538.6  Rx         0708  8  00 00 00 01 00 00 00 00 
   326)      7539.1  Rx         0710  8  00 00 00 07 13 13 D9 00 
   327)      7539.6  Rx         0715  8  00 00 00 00 51 51 00 00 
   328)      7540.1  Rx         0716  8  00 32 74 4F 00 00 02 00 
   329)      7540.6  Rx         0717  8  00 00 0A 00 00 00 01 00 
   330)      7541.1  Rx         0724  8  00 00 00 00 01 00 00 00 
   331)      7541.6  Rx         0726  8  02 87 01 00 01 0E 25 00 
   332)      7604.3  Rx         0725  8  00 00 00 64 64 00 0F 02 
   333)      7610.9  Rx         0020  8  80 00 A0 03 48 01 06 00 
   334)      7690.8  Rx         0020  8  80 00 A0 03 48 01 06 00 
   335)      7771.1  Rx         0020  8  80 00 A0 03 48 01 06 00 
   336)      7810.9  Rx         0110  8  B4 9E 00 00 AC 15 FF FF 
   337)      7811.3  Rx         0111  8  09 22 10 27 03 00 2C 03 
   338)      7811.9  Rx         0112  8  16 17 15 15 14 14 E2 05 
   339)      7812.4  Rx         0113  8  50 00 52 9E 58 9E 59 9E 
   340)      7812.9  Rx         0114  8  5A 9E 5A 9E 55 9E 55 9E 
   341)      7813.4  Rx         0115  8  58 9E 54 9E 00 00 00 00 
   342)      7813.9  Rx         0116  8  B1 9E B0 9E B0 9E B1 9E 
   343)      7814.5  Rx         0117  8  B1 9E B1 9E B3 9E B3 9E 
   344)      7815.0  Rx         0118  8  00 00 B4 9E 00 00 00 00 
   345)      7815.6  Rx     1806E5F4  8  03 48 01 06 00 00 00 00 
   346)      7816.1  Rx         012A  8  C6 03 C4 09 00 00 00 00 
   347)      7816.6  Rx         011C  8  C0 06 C0 06 02 05 32 42 
   348)      7851.0  Rx         0020  8  80 00 A0 03 48 01 06 00 
   349)      7930.8  Rx         0020  8  80 00 A0 03 48 01 06 00 
   350)      8011.2  Rx         0020  8  80 00 A0 03 48 01 06 00 
   351)      8040.9  Rx         0705  8  4A 59 00 00 F8 0C 00 00 
   352)      8041.3  Rx         0706  8  04 20 00 00 00 00 4C 01 
   353)      8041.9  Rx         0708  8  00 00 00 01 00 00 00 00 
   354)      8042.3  Rx         0710  8  00 00 00 07 13 13 D9 00 
   355)      8042.8  Rx         0715  8  00 00 00 00 51 51 00 00 
   356)      8043.3  Rx         0716  8  00 36 74 4F 00 00 03 00 
   357)      8043.8  Rx         0717  8  00 00 0A 00 00 00 01 00 
   358)      8044.3  Rx         0724  8  00 00 00 00 01 00 00 00 
   359)      8044.8  Rx         0726  8  02 87 01 00 01 0E 25 00 
   360)      8090.8  Rx         0020  8  80 00 A0 03 48 01 06 00 
   361)      8091.4  Rx         0258  8  00 00 00 00 00 00 00 00 
   362)      8091.8  Rx         0259  8  00 00 00 00 00 00 00 00 
   363)      8170.8  Rx         0020  8  80 00 A0 03 48 01 06 00 
   364)      8251.1  Rx         0020  8  80 00 A0 03 48 01 06 00 
   365)      8330.8  Rx         0020  8  80 00 A0 03 48 01 06 00 
   366)      8410.9  Rx         0020  8  80 00 A0 03 48 01 06 00 
   367)      8491.1  Rx         0020  8  80 00 A0 03 48 01 06 00 
   368)      8544.0  Rx         0705  8  4A 59 00 00 F8 0C 00 00 
   369)      8544.5  Rx         0706  8  04 20 00 00 00 00 4C 01 
   370)      8545.0  Rx         0708  8  00 00 00 01 00 00 00 00 
   371)      8545.5  Rx         0710  8  00 00 00 07 13 13 D9 00 
   372)      8546.0  Rx         0715  8  00 00 00 00 51 51 00 00 
   373)      8546.5  Rx         0716  8  00 3B 74 4F 00 00 02 00 
   374)      8546.9  Rx         0717  8  FF FF 0A 00 00 00 FA FF 
   375)      8547.4  Rx         0724  8  00 00 00 00 01 00 00 00 
   376)      8547.9  Rx         0726  8  02 87 01 00 01 0E 25 00 
   377)      8570.9  Rx         0020  8  80 00 A0 03 48 01 06 00 
   378)      8650.9  Rx         0020  8  80 00 A0 03 48 01 06 00 
   379)      8731.1  Rx         0020  8  80 00 A0 03 48 01 06 00 
   380)      8810.9  Rx         0110  8  B3 9E 00 00 AC 15 FF FF 
   381)      8811.3  Rx         0111  8  09 22 10 27 03 00 2C 03 
   382)      8811.8  Rx         0020  8  80 00 A0 03 48 01 06 00 
   383)      8812.3  Rx         0112  8  16 17 15 15 14 14 E2 05 
   384)      8812.9  Rx         0113  8  4F 00 51 9E 57 9E 59 9E 
   385)      8813.4  Rx         0114  8  5A 9E 5B 9E 55 9E 55 9E 
   386)      8813.9  Rx         0115  8  5A 9E 55 9E 00 00 00 00 
   387)      8814.5  Rx         0116  8  B1 9E B0 9E AF 9E B1 9E 
   388)      8815.0  Rx         0117  8  B1 9E B2 9E B3 9E B3 9E 
   389)      8815.6  Rx         0118  8  00 00 B4 9E 00 00 00 00 
   390)      8816.2  Rx     1806E5F4  8  03 48 01 06 00 00 00 00 
   391)      8816.6  Rx         012A  8  C6 03 C4 09 00 00 00 00 
   392)      8817.1  Rx         011C  8  C0 06 C0 06 02 05 32 42 
   393)      8890.9  Rx         0020  8  80 00 A0 03 48 01 06 00 
   394)      8971.1  Rx         0020  8  80 00 A0 03 48 01 06 00 
   395)      9047.2  Rx         0705  8  4A 59 00 00 F8 0C 00 00 
   396)      9047.7  Rx         0706  8  04 20 00 00 00 00 4C 01 
   397)      9048.2  Rx         0708  8  00 00 00 01 00 00 00 00 
   398)      9048.6  Rx         0710  8  00 00 00 07 13 13 D9 00 
   399)      9049.2  Rx         0715  8  00 00 00 00 51 51 00 00 
   400)      9049.6  Rx         0716  8  00 40 74 4F 00 00 03 00 
   401)      9050.1  Rx         0717  8  00 00 0A 00 00 00 FB FF 
   402)      9050.6  Rx         0724  8  00 00 00 00 01 00 00 00 
   403)      9051.1  Rx         0020  8  80 00 A0 03 48 01 06 00 
   404)      9051.6  Rx         0726  8  02 87 01 00 01 0E 25 00 
   405)      9110.9  Rx         0258  8  00 00 00 00 00 00 00 00 
   406)      9111.5  Rx         0259  8  00 00 00 00 00 00 00 00 
   407)      9130.8  Rx         0020  8  80 00 A0 03 48 01 06 00 
   408)      9211.2  Rx         0020  8  80 00 A0 03 48 01 06 00 
   409)      9290.8  Rx         0020  8  80 00 A0 03 48 01 06 00 
   410)      9370.8  Rx         0020  8  80 00 A0 03 48 01 06 00 
   411)      9451.0  Rx         0020  8  80 00 A0 03 48 01 06 00 
   412)      9530.8  Rx         0020  8  80 00 A0 03 48 01 05 00 
   413)      9550.2  Rx         0705  8  4A 59 00 00 F8 0C 00 00 
   414)      9550.7  Rx         0706  8  04 20 00 00 00 00 4C 01 
   415)      9551.2  Rx         0708  8  00 00 00 01 00 00 00 00 
   416)      9551.7  Rx         0710  8  00 00 00 07 13 13 D9 00 
   417)      9552.2  Rx         0715  8  00 00 00 00 51 51 00 00 
   418)      9552.7  Rx         0716  8  00 45 74 4F 00 00 02 00 
   419)      9553.1  Rx         0717  8  FF FF 0A 00 00 00 FA FF 
   420)      9553.7  Rx         0724  8  00 00 00 00 01 00 00 00 
   421)      9554.1  Rx         0726  8  02 87 01 00 01 0E 25 00 
   422)      9600.8  Rx         0725  8  00 00 00 64 64 00 0F 02 
   423)      9610.9  Rx         0020  8  80 00 A0 03 48 01 06 00 
   424)      9691.0  Rx         0020  8  80 00 A0 03 48 01 06 00 
   425)      9770.8  Rx         0020  8  80 00 A0 03 48 01 06 00 
   426)      9811.1  Rx         0110  8  B4 9E 00 00 AC 15 FF FF 
   427)      9811.5  Rx         0111  8  09 22 10 27 03 00 2C 03 
   428)      9812.1  Rx         0112  8  16 17 15 15 14 14 E2 05 
   429)      9812.6  Rx         0113  8  50 00 53 9E 5A 9E 5A 9E 
   430)      9813.1  Rx         0114  8  5B 9E 5B 9E 55 9E 56 9E 
   431)      9813.6  Rx         0115  8  59 9E 54 9E 00 00 00 00 
   432)      9814.0  Rx         0116  8  B2 9E B2 9E B0 9E B1 9E 
   433)      9814.7  Rx         0117  8  B2 9E B2 9E B3 9E B3 9E 
   434)      9815.2  Rx         0118  8  00 00 B4 9E 00 00 00 00 
   435)      9815.8  Rx     1806E5F4  8  03 48 01 06 00 00 00 00 
   436)      9816.3  Rx         012A  8  C6 03 C4 09 00 00 00 00 
   437)      9816.8  Rx         011C  8  C0 06 C0 06 02 05 32 42 
   438)      9850.9  Rx         0020  8  80 00 A0 03 48 01 06 00 
   439)      9931.1  Rx         0020  8  80 00 A0 03 48 01 06 00 
   440)     10010.9  Rx         0020  8  80 00 A0 03 48 01 06 00 
   441)     10053.4  Rx         0705  8  4A 59 00 00 F8 0C 00 00 
   442)     10053.9  Rx         0706  8  04 20 00 00 00 00 4C 01 
   443)     10054.4  Rx         0708  8  00 00 00 01 00 00 00 00 
   444)     10054.9  Rx         0710  8  00 00 00 07 13 13 D9 00 
   445)     10055.3  Rx         0715  8  00 00 00 00 51 51 00 00 
   446)     10055.8  Rx         0716  8  00 4A 74 4F 00 00 02 00 
   447)     10056.3  Rx         0717  8  00 00 0A 00 00 00 01 00 
   448)     10056.8  Rx         0724  8  00 00 00 00 01 00 00 00 
   449)     10057.3  Rx         0726  8  02 87 01 00 01 0E 25 00 
   450)     10090.8  Rx         0020  8  80 00 A0 03 48 01 06 00 
   451)     10130.8  Rx         0258  8  00 00 00 00 00 00 00 00 
   452)     10131.3  Rx         0259  8  00 00 00 00 00 00 00 00 
   453)     10171.0  Rx         0020  8  80 00 A0 03 48 01 06 00 
   454)     10250.8  Rx         0020  8  80 00 A0 03 48 01 06 00 
   455)     10330.8  Rx         0020  8  80 00 A0 03 48 01 06 00 
   456)     10411.1  Rx         0020  8  80 00 A0 03 48 01 05 00 
   457)     10490.8  Rx         0020  8  80 00 A0 03 48 01 06 00 
   458)     10556.5  Rx         0705  8  4A 59 00 00 F8 0C 00 00 
   459)     10556.9  Rx         0706  8  04 20 00 00 00 00 4C 01 
   460)     10557.4  Rx         0708  8  00 00 00 01 00 00 00 00 
   461)     10558.0  Rx         0710  8  00 00 00 07 13 13 D9 00 
   462)     10558.4  Rx         0715  8  00 00 00 00 51 51 00 00 
   463)     10558.9  Rx         0716  8  00 4E 74 4F 00 00 03 00 
   464)     10559.4  Rx         0717  8  FF FF 0A 00 00 00 01 00 
   465)     10559.9  Rx         0724  8  00 00 00 00 01 00 00 00 
   466)     10560.4  Rx         0726  8  02 87 01 00 01 0E 25 00 
   467)     10570.8  Rx         0020  8  80 00 A0 03 48 01 06 00 
   468)     10651.0  Rx         0020  8  80 00 A0 03 48 01 06 00 
   469)     10730.8  Rx         0020  8  80 00 A0 03 48 01 06 00 
   470)     10810.8  Rx         0110  8  B5 9E 00 00 AC 15 FF FF 
   471)     10811.3  Rx         0111  8  09 22 10 27 03 00 2C 03 
   472)     10811.7  Rx         0020  8  80 00 A0 03 48 01 05 00 
   473)     10812.2  Rx         0112  8  16 17 15 15 14 14 E2 05 
   474)     10812.8  Rx         0113  8  51 00 52 9E 58 9E 5A 9E 
   475)     10813.3  Rx         0114  8  5A 9E 59 9E 55 9E 55 9E 
   476)     10813.8  Rx         0115  8  59 9E 54 9E 00 00 00 00 
   477)     10814.5  Rx         0116  8  B1 9E B0 9E AF 9E B0 9E 
   478)     10814.9  Rx         0117  8  B0 9E B2 9E B3 9E B3 9E 
   479)     10815.5  Rx         0118  8  00 00 B5 9E 00 00 00 00 
   480)     10816.1  Rx     1806E5F4  8  03 48 01 05 00 00 00 00 
   481)     10816.6  Rx         012A  8  C6 03 C4 09 00 00 00 00 
   482)     10817.0  Rx         011C  8  C0 06 C0 06 02 05 32 42 
   483)     10891.0  Rx         0020  8  80 00 A0 03 48 01 06 00 
   484)     10970.8  Rx         0020  8  80 00 A0 03 48 01 06 00 
   485)     11050.9  Rx         0020  8  80 00 A0 03 48 01 06 00 
   486)     11059.7  Rx         0705  8  4A 59 00 00 F8 0C 00 00 
   487)     11060.1  Rx         0706  8  04 20 00 00 00 00 4C 01 
   488)     11060.7  Rx         0708  8  00 00 00 01 00 00 00 00 
   489)     11061.1  Rx         0710  8  00 00 00 07 13 13 D9 00 
   490)     11061.6  Rx         0715  8  00 00 00 00 51 51 00 00 
   491)     11062.1  Rx         0716  8  00 53 74 4F 00 00 03 00 
   492)     11062.6  Rx         0717  8  00 00 0A 00 00 00 FB FF 
   493)     11063.1  Rx         0724  8  00 00 00 00 01 00 00 00 
   494)     11063.6  Rx         0726  8  02 87 01 00 01 0E 25 00 
   495)     11131.0  Rx         0020  8  80 00 A0 03 48 01 06 00 
   496)     11150.8  Rx         0258  8  00 00 00 00 00 00 00 00 
   497)     11151.3  Rx         0259  8  00 00 00 00 00 00 00 00 
   498)     11210.8  Rx         0020  8  80 00 A0 03 48 01 06 00 
   499)     11290.7  Rx         0020  8  80 00 A0 03 48 01 06 00 
   500)     11371.0  Rx         0020  8  80 00 A0 03 48 01 06 00 
   501)     11450.7  Rx         0020  8  80 00 A0 03 48 01 06 00 
   502)     11530.7  Rx         0020  8  80 00 A0 03 48 01 06 00 
   503)     11562.8  Rx         0705  8  4A 59 00 00 F8 0C 00 00 
   504)     11563.2  Rx         0706  8  04 20 00 00 00 00 4C 01 
   505)     11563.8  Rx         0708  8  00 00 00 01 00 00 00 00 
   506)     11564.2  Rx         0710  8  00 00 00 07 13 13 D9 00 
   507)     11564.7  Rx         0715  8  00 00 00 00 51 51 00 00 
   508)     11565.2  Rx         0716  8  00 58 74 4F 00 00 02 00 
   509)     11565.7  Rx         0717  8  00 00 0A 00 00 00 03 00 
   510)     11566.2  Rx         0724  8  00 00 00 00 01 00 00 00 
   511)     11566.7  Rx         0726  8  02 87 01 00 01 0E 25 00 
   512)     11597.5  Rx         0725  8  00 00 00 64 64 00 0F 02 
   513)     11611.1  Rx         0020  8  80 00 A0 03 48 01 06 00 
   514)     11690.8  Rx         0020  8  80 00 A0 03 48 01 06 00 
   515)     11770.8  Rx         0020  8  80 00 A0 03 48 01 06 00 
   516)     11810.8  Rx         0110  8  B4 9E 00 00 AC 15 FF FF 
   517)     11811.2  Rx         0111  8  09 22 10 27 03 00 2C 03 
   518)     11811.9  Rx         0112  8  16 17 15 15 14 14 E2 05 
   519)     11812.3  Rx         0113  8  50 00 53 9E 57 9E 5B 9E 
   520)     11812.8  Rx         0114  8  5B 9E 5C 9E 57 9E 55 9E 
   521)     11813.3  Rx         0115  8  59 9E 53 9E 00 00 00 00 
   522)     11813.7  Rx         0116  8  B1 9E B1 9E B1 9E B2 9E 
   523)     11814.4  Rx         0117  8  B2 9E B2 9E B2 9E B2 9E 
   524)     11814.9  Rx         0118  8  00 00 B3 9E 00 00 00 00 
   525)     11815.6  Rx     1806E5F4  8  03 48 01 06 00 00 00 00 
   526)     11816.0  Rx         012A  8  C6 03 C4 09 00 00 00 00 
   527)     11816.5  Rx         011C  8  C0 06 C0 06 02 05 32 42 
   528)     11851.1  Rx         0020  8  80 00 A0 03 48 01 06 00 
   529)     11930.8  Rx         0020  8  80 00 A0 03 48 01 05 00 
   530)     12010.8  Rx         0020  8  80 00 A0 03 48 01 06 00 
   531)     12065.9  Rx         0705  8  4A 59 00 00 F8 0C 00 00 
   532)     12066.4  Rx         0706  8  04 20 00 00 00 00 4C 01 
   533)     12067.0  Rx         0708  8  00 00 00 01 00 00 00 00 
   534)     12067.4  Rx         0710  8  00 00 00 07 13 13 D9 00 
   535)     12067.9  Rx         0715  8  00 00 00 00 51 51 00 00 
   536)     12068.4  Rx         0716  8  00 5D 74 4F 00 00 03 00 
   537)     12068.9  Rx         0717  8  00 00 0A 00 00 00 04 00 
   538)     12069.4  Rx         0724  8  00 00 00 00 01 00 00 00 
   539)     12069.9  Rx         0726  8  02 87 01 00 01 0E 25 00 
   540)     12091.0  Rx         0020  8  80 00 A0 03 48 01 06 00 
   541)     12170.7  Rx         0020  8  80 00 A0 03 48 01 06 00 
   542)     12171.2  Rx         0258  8  00 00 00 00 00 00 00 00 
   543)     12190.7  Rx         0259  8  00 00 00 00 00 00 00 00 
   544)     12250.8  Rx         0020  8  80 00 A0 03 48 01 06 00 
   545)     12331.0  Rx         0020  8  80 00 A0 03 48 01 06 00 
   546)     12410.8  Rx         0020  8  80 00 A0 03 48 01 06 00 
   547)     12490.7  Rx         0020  8  80 00 A0 03 48 01 06 00 
   548)     12569.0  Rx         0705  8  4A 59 00 00 F8 0C 00 00 
   549)     12569.6  Rx         0706  8  04 20 00 00 00 00 4C 01 
   550)     12570.0  Rx         0708  8  00 00 00 01 00 00 00 00 
   551)     12570.5  Rx         0710  8  00 00 00 07 13 13 D9 00 
   552)     12571.0  Rx         0715  8  00 00 00 00 51 51 00 00 
   553)     12571.5  Rx         0020  8  80 00 A0 03 48 01 06 00 
   554)     12572.0  Rx         0716  8  00 62 74 4F 00 00 03 00 
   555)     12572.5  Rx         0717  8  00 00 0A 00 00 00 04 00 
   556)     12573.0  Rx         0724  8  00 00 00 00 01 00 00 00 
   557)     12573.4  Rx         0726  8  02 87 01 00 01 0E 25 00 
   558)     12650.7  Rx         0020  8  80 00 A0 03 48 01 06 00 
   559)     12730.7  Rx         0020  8  80 00 A0 03 48 01 06 00 
   560)     12811.0  Rx         0110  8  B3 9E 00 00 AC 15 FF FF 
   561)     12811.5  Rx         0111  8  09 22 10 27 03 00 2C 03 
   562)     12812.0  Rx         0020  8  80 00 A0 03 48 01 06 00 
   563)     12812.4  Rx         0112  8  16 17 15 15 14 14 E2 05 
   564)     12813.1  Rx         0113  8  4F 00 52 9E 59 9E 59 9E 
   565)     12813.6  Rx         0114  8  5B 9E 5B 9E 55 9E 54 9E 
   566)     12814.1  Rx         0115  8  58 9E 53 9E 00 00 00 00 
   567)     12814.7  Rx         0116  8  B0 9E B1 9E AF 9E B1 9E 
   568)     12815.2  Rx         0117  8  B1 9E B2 9E B2 9E B3 9E 
   569)     12815.7  Rx         0118  8  00 00 B4 9E 00 00 00 00 
   570)     12816.3  Rx     1806E5F4  8  03 48 01 06 00 00 00 00 
   571)     12816.8  Rx         012A  8  C6 03 C4 09 00 00 00 00 
   572)     12817.3  Rx         011C  8  C0 06 C0 06 02 05 32 42 
   573)     12890.7  Rx         0020  8  80 00 A0 03 48 01 06 00 
   574)     12970.7  Rx         0020  8  80 00 A0 03 48 01 05 00 
   575)     13051.0  Rx         0020  8  80 00 A0 03 48 01 05 00 
   576)     13072.2  Rx         0705  8  4A 59 00 00 F8 0C 00 00 
   577)     13072.8  Rx         0706  8  04 20 00 00 00 00 4C 01 
   578)     13073.2  Rx         0708  8  00 00 00 01 00 00 00 00 
   579)     13073.7  Rx         0710  8  00 00 00 07 13 13 D9 00 
   580)     13074.2  Rx         0715  8  00 00 00 00 51 51 00 00 
   581)     13074.7  Rx         0716  8  00 66 74 4F 00 00 02 00 
   582)     13075.2  Rx         0717  8  FF FF 0A 00 00 00 F9 FF 
   583)     13075.7  Rx         0724  8  00 00 00 00 01 00 00 00 
   584)     13076.2  Rx         0726  8  02 87 01 00 01 0E 25 00 
   585)     13130.7  Rx         0020  8  80 00 A0 03 48 01 06 00 
   586)     13210.8  Rx         0020  8  80 00 A0 03 48 01 05 00 
   587)     13211.3  Rx         0258  8  00 00 00 00 00 00 00 00 
   588)     13212.0  Rx         0259  8  00 00 00 00 00 00 00 00 
   589)     13291.0  Rx         0020  8  80 00 A0 03 48 01 06 00 
   590)     13370.7  Rx         0020  8  80 00 A0 03 48 01 06 00 
