;$FILEVERSION=1.1
;$STARTTIME=44608.2863718056
;
;   Start time: 16-02-2022 06:52:22.524.0
;   Generated by PCAN-View v4.3.4.615
;
;   Message Number
;   |         Time Offset (ms)
;   |         |        Type
;   |         |        |        ID (hex)
;   |         |        |        |     Data Length
;   |         |        |        |     |   Data Bytes (hex) ...
;   |         |        |        |     |   |
;---+--   ----+----  --+--  ----+---  +  -+ -- -- -- -- -- -- --
     1)        50.8  Rx         0705  8  4A 5A 00 00 F8 0C 00 00 
     2)        51.3  Rx         0706  8  04 20 00 00 00 00 4C 01 
     3)        52.2  Rx         0710  8  00 00 00 07 13 13 D9 00 
     4)        52.8  Rx         0715  8  00 00 00 00 51 51 00 00 
     5)        53.2  Rx         0716  8  00 BE 83 4F 00 00 03 00 
     6)        54.3  Rx         0724  8  00 00 00 00 01 00 00 00 
     7)       380.6  Tx         0706  8  00 00 00 00 00 FF 00 FF 
     8)       554.0  Rx         0705  8  4A 5A 00 00 F8 0C 00 00 
     9)       554.5  Rx         0706  8  04 20 00 00 00 00 4C 01 
    10)       555.9  Rx         0710  8  00 00 00 07 13 13 D9 00 
    11)       556.4  Rx         0715  8  00 00 00 00 51 51 00 00 
    12)       556.9  Rx         0716  8  00 C3 83 4F 00 00 03 00 
    13)       557.9  Rx         0724  8  00 00 00 00 01 00 00 00 
    14)       714.5  Rx         0110  8  AF 9E 00 00 AC 15 FF FF 
    15)       714.9  Rx         0111  8  05 22 10 27 03 00 2C 03 
    16)       715.9  Rx         0112  8  16 17 15 15 14 14 E1 05 
    17)       716.5  Rx         0113  8  4B 00 4F 9E 52 9E 56 9E 
    18)       717.0  Rx         0114  8  56 9E 56 9E 51 9E 51 9E 
    19)       717.5  Rx         0115  8  56 9E 50 9E 00 00 00 00 
    20)       718.1  Rx         0116  8  AE 9E AE 9E AE 9E AE 9E 
    21)       718.6  Rx         0117  8  AF 9E AF 9E B0 9E B0 9E 
    22)       719.2  Rx         0118  8  00 00 B0 9E 00 00 00 00 
    23)       720.7  Rx         0728  8  00 00 01 08 B1 D7 01 08 
    24)       787.6  Rx     1806E5F4  8  03 48 00 00 00 00 00 00 
    25)       880.7  Tx         0706  8  00 00 00 00 00 FF 00 FF 
    26)      1057.0  Rx         0705  8  4A 5A 00 00 F8 0C 00 00 
    27)      1057.5  Rx         0706  8  04 20 00 00 00 00 4C 01 
    28)      1058.5  Rx         0710  8  00 00 00 07 13 13 D9 00 
    29)      1059.0  Rx         0715  8  00 00 00 00 51 51 00 00 
    30)      1059.5  Rx         0716  8  00 C8 83 4F 00 00 03 00 
    31)      1060.5  Rx         0724  8  00 00 00 00 01 00 00 00 
    32)      1381.2  Tx         0706  8  00 00 00 00 00 FF 00 FF 
    33)      1560.2  Rx         0705  8  4A 5A 00 00 F8 0C 00 00 
    34)      1560.7  Rx         0706  8  04 20 00 00 00 00 4C 01 
    35)      1561.7  Rx         0710  8  00 00 00 07 13 13 D9 00 
    36)      1562.2  Rx         0715  8  00 00 00 00 51 51 00 00 
    37)      1562.7  Rx         0716  8  00 CD 83 4F 00 00 03 00 
    38)      1563.7  Rx         0724  8  00 00 00 00 01 00 00 00 
    39)      1714.4  Rx         0110  8  B0 9E 00 00 AC 15 FF FF 
    40)      1714.9  Rx         0111  8  05 22 10 27 03 00 2C 03 
    41)      1715.5  Rx         0112  8  16 17 15 15 14 14 E1 05 
    42)      1715.9  Rx         0113  8  4C 00 50 9E 55 9E 57 9E 
    43)      1716.4  Rx         0114  8  57 9E 57 9E 52 9E 52 9E 
    44)      1716.9  Rx         0115  8  55 9E 51 9E 00 00 00 00 
    45)      1717.4  Rx         0116  8  AD 9E AC 9E AC 9E AE 9E 
    46)      1718.0  Rx         0117  8  AE 9E AF 9E B0 9E B0 9E 
    47)      1718.6  Rx         0118  8  00 00 B1 9E 00 00 00 00 
    48)      1720.1  Rx         0728  8  00 00 01 08 B1 D7 01 08 
    49)      1785.6  Rx     1806E5F4  8  03 48 00 00 00 00 00 00 
    50)      1880.4  Tx         0706  8  00 00 00 00 00 FF 00 FF 
    51)      2063.4  Rx         0705  8  4A 5A 00 00 F8 0C 00 00 
    52)      2063.9  Rx         0706  8  04 20 00 00 00 00 4C 01 
    53)      2064.9  Rx         0710  8  00 00 00 07 13 13 D9 00 
    54)      2065.4  Rx         0715  8  00 00 00 00 51 51 00 00 
    55)      2065.8  Rx         0716  8  00 D2 83 4F 00 00 03 00 
    56)      2066.9  Rx         0724  8  00 00 00 00 01 00 00 00 
    57)      2380.6  Tx         0706  8  00 00 00 00 00 FF 00 FF 
    58)      2566.5  Rx         0705  8  4A 5A 00 00 F8 0C 00 00 
    59)      2567.0  Rx         0706  8  04 20 00 00 00 00 4C 01 
    60)      2568.0  Rx         0710  8  00 00 00 07 13 13 D9 00 
    61)      2568.5  Rx         0715  8  00 00 00 00 51 51 00 00 
    62)      2569.0  Rx         0716  8  00 D6 83 4F 00 00 02 00 
    63)      2570.0  Rx         0724  8  00 00 00 00 01 00 00 00 
    64)      2714.6  Rx         0110  8  AF 9E 00 00 AC 15 FF FF 
    65)      2715.1  Rx         0111  8  05 22 10 27 03 00 2C 03 
    66)      2716.0  Rx         0112  8  16 17 15 15 14 14 E1 05 
    67)      2716.7  Rx         0113  8  4B 00 4E 9E 53 9E 55 9E 
    68)      2717.2  Rx         0114  8  57 9E 57 9E 53 9E 51 9E 
    69)      2717.7  Rx         0115  8  55 9E 51 9E 00 00 00 00 
    70)      2718.3  Rx         0116  8  AD 9E AD 9E AC 9E AE 9E 
    71)      2718.8  Rx         0117  8  AE 9E AF 9E B1 9E B0 9E 
    72)      2719.4  Rx         0118  8  00 00 B1 9E 00 00 00 00 
    73)      2720.9  Rx         0728  8  00 00 01 08 B1 D7 01 08 
    74)      2783.6  Rx     1806E5F4  8  03 48 00 00 00 00 00 00 
    75)      2881.3  Tx         0706  8  00 00 00 00 00 FF 00 FF 
    76)      3069.7  Rx         0705  8  4A 5A 00 00 F8 0C 00 00 
    77)      3070.2  Rx         0706  8  04 20 00 00 00 00 4C 01 
    78)      3071.1  Rx         0710  8  00 00 00 07 13 13 D9 00 
    79)      3071.7  Rx         0715  8  00 00 00 00 51 51 00 00 
    80)      3072.1  Rx         0716  8  00 DB 83 4F 00 00 03 00 
    81)      3073.1  Rx         0724  8  00 00 00 00 01 00 00 00 
    82)      3380.9  Tx         0706  8  00 00 00 00 00 FF 00 FF 
    83)      3572.9  Rx         0705  8  4A 5A 00 00 F8 0C 00 00 
    84)      3573.4  Rx         0706  8  04 20 00 00 00 00 4C 01 
    85)      3574.3  Rx         0710  8  00 00 00 07 13 13 D9 00 
    86)      3574.9  Rx         0715  8  00 00 00 00 51 51 00 00 
    87)      3575.3  Rx         0716  8  00 E0 83 4F 00 00 03 00 
    88)      3576.4  Rx         0724  8  00 00 00 00 01 00 00 00 
    89)      3714.3  Rx         0110  8  B0 9E 00 00 AC 15 FF FF 
    90)      3714.8  Rx         0111  8  05 22 10 27 03 00 2C 03 
    91)      3715.4  Rx         0112  8  16 17 15 15 14 14 E1 05 
    92)      3715.9  Rx         0113  8  4C 00 4F 9E 54 9E 56 9E 
    93)      3716.3  Rx         0114  8  57 9E 57 9E 51 9E 51 9E 
    94)      3716.9  Rx         0115  8  54 9E 50 9E 00 00 00 00 
    95)      3717.3  Rx         0116  8  AE 9E AD 9E AE 9E AE 9E 
    96)      3718.0  Rx         0117  8  AE 9E AF 9E AF 9E B1 9E 
    97)      3718.5  Rx         0118  8  00 00 B1 9E 00 00 00 00 
    98)      3720.1  Rx         0728  8  00 00 01 08 B1 D7 01 08 
    99)      3781.7  Rx     1806E5F4  8  03 48 00 00 00 00 00 00 
   100)      3881.0  Tx         0706  8  00 00 00 00 00 FF 00 FF 
   101)      4075.9  Rx         0705  8  4A 5A 00 00 F8 0C 00 00 
   102)      4076.4  Rx         0706  8  04 20 00 00 00 00 4C 01 
   103)      4077.4  Rx         0710  8  00 00 00 07 13 13 D9 00 
   104)      4077.8  Rx         0715  8  00 00 00 00 51 51 00 00 
   105)      4078.3  Rx         0716  8  00 E5 83 4F 00 00 03 00 
   106)      4079.3  Rx         0724  8  00 00 00 00 01 00 00 00 
   107)      4380.4  Tx         0706  8  00 00 00 00 00 FF 00 FF 
   108)      4579.1  Rx         0705  8  4A 5A 00 00 F8 0C 00 00 
   109)      4579.5  Rx         0706  8  04 20 00 00 00 00 4C 01 
   110)      4580.5  Rx         0710  8  00 00 00 07 13 13 D9 00 
   111)      4581.0  Rx         0715  8  00 00 00 00 51 51 00 00 
   112)      4581.5  Rx         0716  8  00 EA 83 4F 00 00 03 00 
   113)      4582.5  Rx         0724  8  00 00 00 00 01 00 00 00 
   114)      4714.3  Rx         0110  8  B0 9E 00 00 AC 15 FF FF 
   115)      4714.8  Rx         0111  8  05 22 10 27 03 00 2C 03 
   116)      4715.7  Rx         0112  8  16 17 15 15 14 14 E1 05 
   117)      4716.4  Rx         0113  8  4C 00 4F 9E 53 9E 55 9E 
   118)      4716.8  Rx         0114  8  57 9E 56 9E 52 9E 51 9E 
   119)      4717.4  Rx         0115  8  55 9E 50 9E 00 00 00 00 
   120)      4718.0  Rx         0116  8  AE 9E AD 9E AC 9E AF 9E 
   121)      4718.5  Rx         0117  8  AE 9E AF 9E AF 9E B0 9E 
   122)      4719.1  Rx         0118  8  00 00 B1 9E 00 00 00 00 
   123)      4720.6  Rx         0728  8  00 00 01 08 B1 D7 01 08 
   124)      4779.6  Rx     1806E5F4  8  03 48 00 00 00 00 00 00 
   125)      4880.5  Tx         0706  8  00 00 00 00 00 FF 00 FF 
   126)      5082.2  Rx         0705  8  4A 5A 00 00 F8 0C 00 00 
   127)      5082.7  Rx         0706  8  04 20 00 00 00 00 4C 01 
   128)      5083.6  Rx         0710  8  00 00 00 07 13 13 D9 00 
   129)      5084.1  Rx         0715  8  00 00 00 00 51 51 00 00 
   130)      5084.6  Rx         0716  8  00 EE 83 4F 00 00 02 00 
   131)      5085.6  Rx         0724  8  00 00 00 00 01 00 00 00 
   132)      5380.8  Tx         0706  8  00 00 00 00 00 FF 00 FF 
   133)      5585.3  Rx         0705  8  4A 5A 00 00 F8 0C 00 00 
   134)      5585.9  Rx         0706  8  04 20 00 00 00 00 4C 01 
   135)      5586.8  Rx         0710  8  00 00 00 07 13 13 D9 00 
   136)      5587.3  Rx         0715  8  00 00 00 00 51 51 00 00 
   137)      5587.8  Rx         0716  8  00 F3 83 4F 00 00 02 00 
   138)      5588.8  Rx         0724  8  00 00 00 00 01 00 00 00 
   139)      5714.6  Rx         0110  8  B0 9E 00 00 AC 15 FF FF 
   140)      5715.0  Rx         0111  8  05 22 10 27 03 00 2C 03 
   141)      5715.6  Rx         0112  8  16 17 15 15 14 14 E1 05 
   142)      5716.1  Rx         0113  8  4C 00 4F 9E 54 9E 57 9E 
   143)      5716.6  Rx         0114  8  56 9E 57 9E 51 9E 52 9E 
   144)      5717.1  Rx         0115  8  55 9E 52 9E 00 00 00 00 
   145)      5717.6  Rx         0116  8  AE 9E AD 9E AE 9E AF 9E 
   146)      5718.2  Rx         0117  8  AF 9E AF 9E B1 9E B1 9E 
   147)      5718.7  Rx         0118  8  00 00 B1 9E 00 00 00 00 
   148)      5720.3  Rx         0728  8  00 00 01 08 B1 D7 01 08 
   149)      5777.6  Rx     1806E5F4  8  03 48 00 00 00 00 00 00 
   150)      5881.3  Tx         0706  8  00 00 00 00 00 FF 00 FF 
   151)      6088.4  Rx         0705  8  4A 5A 00 00 F8 0C 00 00 
   152)      6089.0  Rx         0706  8  04 20 00 00 00 00 4C 01 
   153)      6089.9  Rx         0710  8  00 00 00 07 13 13 D9 00 
   154)      6090.4  Rx         0715  8  00 00 00 00 51 51 00 00 
   155)      6090.9  Rx         0716  8  00 F8 83 4F 00 00 02 00 
   156)      6091.9  Rx         0724  8  00 00 00 00 01 00 00 00 
